
**** 06/27/18 10:17:36 *********** Evaluation PSpice (Nov 1999) **************

 logic implement:


 ****     CIRCUIT DESCRIPTION


******************************************************************************



V1 1 0 DC 5V
VA 5 0 PULSE(0 5 0ns 3ns 3ns 20ns 40ns)
VB 2 0 PULSE(0 5 6ns 3ns 3ns 20ns 60ns)
VC 3 0 PULSE(0 5 25ns 3ns 3ns 20ns 80ns)
MPU1 4 2 1 1 IRF150
MPU2 7 3 4 4 IRF150
MPU3 7 5 1 1 IRF150
MPU4 8 7 1 1 IRF150
MPD1 7 5 6 6 IRF250
MPD2 6 2 0 0 IRF250
MPD3 6 3 0 0 IRF250
MPD4 8 7 0 0 IRF250
CL 8 0 0.15PF
.MODEL IRF250 NMOS (level=3 w=10u l=2u vto=1.0 tox=470e-10 nsub=38e14 cj=160e-6 cjsw=430e-12 mj=0.33 kp=30e-6)
.MODEL IRF150 PMOS (level=3 w=20u l=2u vto=1.0 tox=470e-10 nsub=8.7e14 cj=100e-6 cjsw=180e-12 mj=0.5 kp=12e-6)
.DC VA 0 5 0.1
.TRAN 1ns 180ns
.PROBE V(VA) V(VB) V(VC) V(CL) 
.END

**** 06/27/18 10:17:36 *********** Evaluation PSpice (Nov 1999) **************

 logic implement:


 ****     MOSFET MODEL PARAMETERS


******************************************************************************




               IRF250          IRF150          
               NMOS            PMOS            
       LEVEL    3               3            
           L    2.000000E-06    2.000000E-06 
           W   10.000000E-06   20.000000E-06 
         VTO    1               1            
          KP   30.000000E-06   12.000000E-06 
       GAMMA     .48341          .231304     
         PHI     .645382         .569121     
      LAMBDA    0               0            
          IS   10.000000E-15   10.000000E-15 
          JS    0               0            
          PB     .8              .8          
        PBSW     .8              .8          
          CJ  160.000000E-06  100.000000E-06 
        CJSW  430.000000E-12  180.000000E-12 
          MJ     .33                         
        CGSO    0               0            
        CGDO    0               0            
        CGBO    0               0            
        NSUB    3.800000E+15  870.000000E+12 
         TOX   47.000000E-09   47.000000E-09 
          XJ    0               0            
       UCRIT   10.000000E+03   10.000000E+03 
      DIOMOD    1               1            
         VFB    0               0            
        LETA    0               0            
        WETA    0               0            
          U0    0               0            
        TEMP    0               0            
         VDD    0               0            
       XPART    0               0            


**** 06/27/18 10:17:36 *********** Evaluation PSpice (Nov 1999) **************

 logic implement:


 ****     INITIAL TRANSIENT SOLUTION       TEMPERATURE =   27.000 DEG C


******************************************************************************



 NODE   VOLTAGE     NODE   VOLTAGE     NODE   VOLTAGE     NODE   VOLTAGE


(    1)    5.0000  (    2)    0.0000  (    3)    0.0000  (    4)    5.0000      

(    5)    0.0000  (    6)    1.6633  (    7)    5.0000  (    8)     .2052  




    VOLTAGE SOURCE CURRENTS
    NAME         CURRENT

    V1          -1.195E-04
    VA           0.000E+00
    VB           0.000E+00
    VC           0.000E+00

    TOTAL POWER DISSIPATION   5.97E-04  WATTS



          JOB CONCLUDED

          TOTAL JOB TIME             .03
